#  HZ   S   RI   R     50.00 
! Rohde & Schwarz Vector Network Analyzer 
! Rohde-Schwarz,ZNLE4-2Port,1323001254200019,1.80.1.7492-24.08.1.42
! Created: UTC 2/23/2026, 8:28:12 AM
! freq[Hz]                re:S11                  im:S11                  re:S21                  im:S21                  re:S12                  im:S12                  re:S22                  im:S22
 1.000000000000000E6    -9.903900099971623E-1    1.049648871811674E-2    1.021631459151108E-5    1.801479894579355E-7    1.145840807867194E-5   -1.312078827639187E-5   -9.857845265784155E-1    1.890026894573299E-2
 1.001683782507681E6    -9.903208153879119E-1    1.045270182951018E-2   -7.815013223480408E-6    3.139574152641484E-6    5.502114679664394E-6    2.432116783005763E-6   -9.857532920803306E-1    1.892841978292188E-2
 1.003370400138895E6    -9.903029989590366E-1    1.055204144673374E-2   -9.973391609187543E-6   -1.241897266368900E-5   -3.466331360465968E-6   -1.290085115411970E-5   -9.857389423154942E-1    1.896173544635781E-2
 1.005059857667375E6    -9.902383789745136E-1    1.058262867553381E-2   -1.996450844309648E-5    2.594610086301587E-5    1.110048251616370E-5    7.743363619700263E-6   -9.858321793046723E-1    1.888808416687960E-2
 1.006752159874888E6    -9.902853790781881E-1    1.063556849326042E-2   -7.213156907911108E-6    1.761937660895168E-5   -1.259995622519567E-5   -4.607347739118830E-6   -9.856763571191721E-1    1.896876279186791E-2
 1.008447311551255E6    -9.902904475948694E-1    1.065849306741760E-2   -4.019227144837883E-6   -1.923119156629634E-5   -2.334632045410201E-5    5.404023025412624E-6   -9.858033126205119E-1    1.899396738195052E-2
 1.010145317494363E6    -9.901449513794224E-1    1.059053438069646E-2   -1.417873032037580E-5   -3.527413736940380E-5    8.505545359765355E-6    9.071515522116327E-6   -9.858224086907800E-1    1.910725506444786E-2
 1.011846182510176E6    -9.902553019859213E-1    1.067693371322573E-2   -3.803687994866674E-6    5.986265298132440E-6    2.033034751261488E-5   -1.982924183496338E-5   -9.857301582472343E-1    1.906759118618458E-2
 1.013549911412752E6    -9.902386587955028E-1    1.074186714386595E-2   -1.598198736525721E-6    7.657467770065366E-6    1.365040819417549E-5    1.804942354544725E-5   -9.859010353287164E-1    1.916661800245764E-2
 1.015256509024250E6    -9.901919974979702E-1    1.071218176728657E-2   -4.191301337521274E-6    3.388959583250067E-6   -1.512600427294100E-5    7.515230769224361E-6   -9.857227789298162E-1    1.917320557462289E-2
 1.016965980174955E6    -9.902244442640836E-1    1.066733123352047E-2    1.500311034312344E-6   -8.048429128792888E-6   -3.221043758041627E-6   -3.383674231253139E-5   -9.856976374998743E-1    1.913712148041343E-2
 1.018678329703280E6    -9.901340241595500E-1    1.081644672517610E-2    1.447596698486756E-5   -3.030963459667246E-5    4.666519233350151E-6    4.903290638641582E-6   -9.857374121099206E-1    1.918296870879414E-2
 1.020393562455788E6    -9.902394020031510E-1    1.080996210756512E-2   -1.034792288816181E-5   -6.088468462405425E-6    2.994583130401911E-7   -4.217101494999328E-6   -9.857580179258588E-1    1.919927050538378E-2
 1.022111683287203E6    -9.901661382409781E-1    1.076786253010984E-2   -2.095266964570218E-6   -1.054545001440920E-6   -1.928177279631004E-6    1.107262947465363E-6   -9.857578198197617E-1    1.929343524573034E-2
 1.023832697060418E6    -9.902174500292923E-1    1.071833612902820E-2    1.692218251778279E-6   -1.358864157468888E-5   -1.378199651747484E-5    1.091096321945157E-5   -9.856859435554427E-1    1.929549602837948E-2
 1.025556608646520E6    -9.901718703052196E-1    1.082981021545674E-2   -6.697594551252289E-6    8.363735828724158E-7    1.596481502737422E-6    4.022865876071418E-6   -9.857582532837909E-1    1.926713209760880E-2
 1.027283422924796E6    -9.902400417147577E-1    1.079244107549401E-2   -7.719723425758966E-6    4.693931530378046E-6   -2.014106554971545E-5    5.674037560847356E-6   -9.857366111590294E-1    1.927668580119586E-2
 1.029013144782747E6    -9.901580396452807E-1    1.078118964444044E-2    2.932022487754045E-5    5.322074416745330E-6    6.245343614469893E-6   -4.304147125293824E-6   -9.858019121082188E-1    1.935397087206836E-2
 1.030745779116106E6    -9.901979140341022E-1    1.069423634514336E-2   -9.418807516027607E-6    5.379351879777329E-6   -4.089734303555454E-6   -1.646344474345403E-5   -9.856667508898285E-1    1.933355607372860E-2
 1.032481330828849E6    -9.901971570436163E-1    1.077006352722403E-2    1.185154723421661E-5    7.792646514373778E-6    6.567905457627351E-6   -2.329470245217801E-5   -9.857458354134632E-1    1.935810563807736E-2
 1.034219804833206E6    -9.901931997352107E-1    1.084647960468202E-2   -1.402214333056940E-5   -5.617316028028835E-6   -1.388574984559395E-5   -1.088533155922927E-5   -9.857576522588781E-1    1.948044154552268E-2
 1.035961206049681E6    -9.901293838023734E-1    1.093295948164377E-2    1.663033768603814E-7   -2.004234195852518E-5    3.049640449443184E-6    9.164711140786690E-7   -9.857373376453407E-1    1.950959256314464E-2
 1.037705539407064E6    -9.902524506504563E-1    1.087735286715582E-2   -9.476954642494667E-6   -4.295385881793902E-6   -9.199332066100416E-6   -1.337097257320038E-5   -9.857378315601369E-1    1.947084757882138E-2
 1.039452809842441E6    -9.902253174844303E-1    1.092038115586287E-2   -3.901110846025558E-5   -8.682114628122320E-6    1.046597866301691E-5   -1.418641852136598E-5   -9.857493090182473E-1    1.950158739323796E-2
 1.041203022301215E6    -9.901619130757212E-1    1.095007657448873E-2    1.354611601655776E-5    2.723090275647748E-6   -4.599211885751465E-6   -9.811055335460247E-8   -9.857230225066019E-1    1.948873092945293E-2
 1.042956181737111E6    -9.901393366735494E-1    1.092256127816866E-2    1.372077322892068E-5    7.435690134686628E-6    4.985069460869593E-6    1.620281876443060E-6   -9.857697579427066E-1    1.956878013745780E-2
 1.044712293112197E6    -9.901924739262964E-1    1.095202084654688E-2   -3.159182926455096E-5    7.091198060999080E-6    1.063320489188042E-5    1.936959668042728E-5   -9.856899458717259E-1    1.965584156478620E-2
 1.046471361396899E6    -9.901801084165208E-1    1.099461568856260E-2    2.693339978263533E-5   -5.314921688178550E-6   -1.785298112295561E-5    1.336075273181442E-5   -9.857799944356074E-1    1.959249237247289E-2
 1.048233391570008E6    -9.902206755757225E-1    1.104072087175029E-2   -1.801265271349170E-5   -8.355951577662743E-6    2.077991024031784E-6   -1.099442642991986E-5   -9.857555413201109E-1    1.958690295276751E-2
 1.049998388618702E6    -9.901264260067649E-1    1.095372007052644E-2    1.306859118864994E-5    2.032916915460382E-5    2.814629340944796E-6   -7.669618400764116E-6   -9.857852339566064E-1    1.967759182695715E-2
 1.051766357538552E6    -9.901239237220195E-1    1.093724267793829E-2   -9.551778694475751E-6   -5.004532291462316E-6   -1.928658258376857E-5    3.531663315574656E-6   -9.857856541074788E-1    1.969931867061470E-2
 1.053537303333542E6    -9.902283219670643E-1    1.098251527053560E-2   -1.070372241410558E-5   -1.034168197754424E-5    9.640309103018047E-6    1.340287157462121E-5   -9.857937942221178E-1    1.972331044685291E-2
 1.055311231016085E6    -9.901661282857318E-1    1.099448205030198E-2    4.693308794100616E-6   -2.568724084095473E-5    6.654672715211133E-6   -1.114284830781169E-5   -9.856189261419253E-1    1.977091149593955E-2
 1.057088145607029E6    -9.900518881241326E-1    1.097828123121446E-2   -4.202432245880040E-6    9.256936565868327E-6    5.417951929398834E-6   -4.491851924871558E-6   -9.856676236599266E-1    1.978881196772554E-2
 1.058868052135681E6    -9.902131375145166E-1    1.101842277812954E-2    1.372077368651997E-5   -2.335103640891236E-5   -1.834688969414942E-6   -1.821265527921503E-6   -9.856934198017024E-1    1.984323041139903E-2
 1.060650955639809E6    -9.901723390920798E-1    1.107058898191583E-2   -8.450492943867048E-6    1.621013641624677E-5   -5.043694302885395E-6    1.111325545851642E-5   -9.857378241585728E-1    1.976218339256974E-2
 1.062436861165670E6    -9.901881947341111E-1    1.109697997333695E-2    3.056341616682941E-6   -3.304726036345283E-6    4.152688086515623E-6   -5.016356769983486E-6   -9.856948415629637E-1    1.990389391353450E-2
 1.064225773768016E6    -9.900629194927897E-1    1.114556449773812E-2   -5.480830055926887E-6   -1.671598774571149E-5    1.118215541084901E-5    4.146011872958321E-6   -9.856963229721651E-1    1.988761760416315E-2
 1.066017698510110E6    -9.901825486762009E-1    1.106131006494287E-2   -1.826897095274008E-7   -4.171309754568806E-5   -1.851354820286340E-5    6.780668238398814E-6   -9.856854052530760E-1    1.991195882022608E-2
 1.067812640463741E6    -9.901682406998835E-1    1.109762930356488E-2    2.008127185513571E-5    1.121127174863171E-5    1.491617053783263E-5   -1.409568094055493E-5   -9.857692830670285E-1    2.001218362434624E-2
 1.069610604709235E6    -9.901525616705690E-1    1.112992798992702E-2    6.558070322210515E-7   -1.622990729758784E-6   -2.856831171044852E-5   -1.088222504619274E-5   -9.856923621952760E-1    1.996503025930781E-2
 1.071411596335474E6    -9.901678816856886E-1    1.113628744587665E-2   -2.386154207313736E-6   -1.431918746632414E-5    5.031952478449532E-6   -4.160102912423648E-6   -9.856794104500959E-1    2.011549630550260E-2
 1.073215620439910E6    -9.901507082203947E-1    1.105584992660880E-2   -2.963214660794889E-6   -1.391840054480821E-5    2.052170647239886E-5   -2.020581011794958E-5   -9.857609105743105E-1    2.021004120401995E-2
 1.075022682128577E6    -9.901078234369270E-1    1.112000997690333E-2    2.946049110472531E-5   -6.426827361611266E-6   -2.345858683875871E-5   -3.996163808663108E-6   -9.857617372299123E-1    2.010219205941635E-2
 1.076832786516107E6    -9.901927049290817E-1    1.118568980785510E-2    1.891535685618487E-5   -4.425169780615282E-6    7.312850280343471E-6    4.487411986830461E-6   -9.857076766085148E-1    2.014309394847027E-2
 1.078645938725740E6    -9.900793178737660E-1    1.123185346169782E-2    1.273909819098946E-5    1.689760836782292E-5   -2.313973857109781E-5   -1.500639479466195E-5   -9.856644928874226E-1    2.012570470078420E-2
 1.080462143889348E6    -9.901507862711153E-1    1.128325407104006E-2   -1.882258164750005E-5   -9.963776709618096E-6   -4.641875601195268E-6   -9.743045202532955E-6   -9.857167154773304E-1    2.023536562645005E-2
 1.082281407147440E6    -9.901633127514570E-1    1.121420147805284E-2   -2.777050596748925E-5    1.871128389627494E-6   -2.047805284674922E-5   -2.323102328323940E-5   -9.857232033817210E-1    2.029046918652785E-2
 1.084103733649183E6    -9.901398535108233E-1    1.129329219279168E-2   -2.043468135691273E-6   -3.323133136991816E-5   -2.390005890906816E-6    1.755608873558170E-5   -9.856376569142551E-1    2.021499670891012E-2
 1.085929128552413E6    -9.901726069943014E-1    1.132995322018598E-2   -1.641119622791867E-5    3.280810003625126E-5    1.326727693297236E-5   -2.863267824792830E-5   -9.857246825889968E-1    2.019550723025925E-2
 1.087757597023653E6    -9.901361027001517E-1    1.127468609972726E-2   -3.020485021669515E-5    2.582735756039886E-5   -7.648053486729669E-6    5.801818781406580E-6   -9.857275012299216E-1    2.027479039598374E-2
 1.089589144238118E6    -9.900891610322253E-1    1.128292841699886E-2    4.954238659098644E-6    5.847709309936491E-6   -1.166089092656947E-6   -1.638563987091001E-5   -9.857201882682157E-1    2.028345665751855E-2
 1.091423775379746E6    -9.901325256841365E-1    1.141215583156444E-2   -7.759613014911778E-6   -9.055153081127310E-6    1.651645331644284E-6    6.212823808395493E-6   -9.856914273595659E-1    2.030368476154296E-2
 1.093261495641197E6    -9.900980932865278E-1    1.133750825064526E-2    3.169712259868898E-5    2.637274138524810E-5    1.491633043236626E-5   -9.541610810157247E-6   -9.856897815543219E-1    2.043793091230891E-2
 1.095102310223878E6    -9.901625508995771E-1    1.148748742391149E-2   -2.063773141905555E-5    9.381840731085341E-6   -9.644189778079341E-6   -2.048294068613637E-5   -9.856901136687124E-1    2.046572571808518E-2
 1.096946224337957E6    -9.901552918590981E-1    1.135565322504863E-2   -9.265803411121190E-6    7.905434394065252E-6   -2.064925702870604E-6   -3.655955618117361E-5   -9.856872236642669E-1    2.052149094039117E-2
 1.098793243202363E6    -9.901942555054682E-1    1.137185902191629E-2    1.691579085773224E-6   -1.475676749278047E-5    1.759120606431821E-6   -1.929388136882462E-5   -9.858122807034718E-1    2.042955881614893E-2
 1.100643372044825E6    -9.901575100666071E-1    1.145840555875942E-2   -7.719678098027678E-7   -4.433685800210339E-6   -3.512339486339900E-6    3.065187128109717E-5   -9.856630017313054E-1    2.058549412064581E-2
 1.102496616101869E6    -9.901119407124812E-1    1.146605301596038E-2   -2.408553214122155E-7   -8.833715009486426E-6   -1.741892255606647E-5    1.440737757621569E-5   -9.856508215376921E-1    2.062950657092673E-2
 1.104352980618839E6    -9.901642597260060E-1    1.154592022726281E-2    3.802705602277242E-6    1.233497344663677E-5   -2.216557444559899E-6    3.081156187889093E-6   -9.856486028059402E-1    2.061949183860718E-2
 1.106212470849912E6    -9.900991274171678E-1    1.150664982276783E-2   -1.709492543732479E-5   -8.650018981282194E-6    1.237166958794477E-5   -2.035001913256593E-5   -9.856089501568560E-1    2.069241969669640E-2
 1.108075092058108E6    -9.901016618965742E-1    1.153635692175937E-2   -7.200584919794801E-6   -2.507556262132073E-5   -1.691340106246487E-5   -3.663767913495433E-7   -9.855962807578038E-1    2.066947022804841E-2
 1.109940849515312E6    -9.900916800698923E-1    1.151653046367750E-2    8.640397714715091E-6   -6.218295491124510E-6   -1.592731783208605E-5   -1.317648680197072E-5   -9.856392625686481E-1    2.062292846077422E-2
 1.111809748502287E6    -9.901939391293801E-1    1.146660773993397E-2   -1.935700529913898E-5   -8.688669586508605E-6   -1.328071352201450E-5    1.510104452099714E-5   -9.856179925849268E-1    2.065832224151538E-2
 1.113681794308684E6    -9.901477512110182E-1    1.158094486645997E-2   -3.767740232149985E-6   -2.037656312752000E-6   -1.897386481588906E-5   -1.698941407958444E-5   -9.856748569720218E-1    2.075710323714042E-2
 1.115556992233066E6    -9.900817320948172E-1    1.158159970702817E-2   -1.280872632890281E-5   -1.225314969387105E-5   -1.537170920365442E-5    8.254326726641106E-6   -9.856078690054457E-1    2.075055904533401E-2
 1.117435347582909E6    -9.900516261460578E-1    1.165335212717664E-2    2.655905775755958E-6   -6.196661585289990E-6   -1.014357675883661E-6    1.260554003329580E-5   -9.857334717104690E-1    2.075517308816203E-2
 1.119316865674633E6    -9.901380365115451E-1    1.154152214744140E-2    9.243009833330348E-7    4.457048454599114E-7    8.011059756940686E-6    9.793809219217825E-6   -9.856282124215888E-1    2.087411468121752E-2
 1.121201551833608E6    -9.901116300582248E-1    1.163695840876450E-2    1.923893235810603E-5   -8.787839752162083E-6   -4.069088179407607E-7   -7.198738962746194E-6   -9.856643445019374E-1    2.081683055436005E-2
 1.123089411394170E6    -9.901238135351114E-1    1.161493712931174E-2   -8.524045291272984E-6    8.108449215729431E-6    6.493620726100739E-6    5.156080694339486E-7   -9.856101012029878E-1    2.091553424585222E-2
 1.124980449699640E6    -9.900998564056591E-1    1.167514257734550E-2   -3.952115264766451E-6   -4.935295219576508E-6   -1.523077588228298E-5    1.001590639061922E-5   -9.855972145164629E-1    2.089116120438532E-2
 1.126874672102327E6    -9.900696187085699E-1    1.161977624701281E-2   -2.868519135559279E-6   -9.761308988505884E-6   -2.814075386484719E-5   -1.208146292947898E-5   -9.855442089282126E-1    2.091075045977667E-2
 1.128772083963561E6    -9.900569043818086E-1    1.169683055426676E-2   -4.045934140989311E-5   -1.737974090532024E-6    1.686270994538805E-5    1.047070286139769E-5   -9.855919418027248E-1    2.096252498345674E-2
 1.130672690653698E6    -9.900810040640273E-1    1.158898620570999E-2    4.202204415994055E-6   -2.685588054972443E-5    4.586713770589552E-6   -6.456552037111939E-6   -9.856619564781994E-1    2.104580590305101E-2
 1.132576497552133E6    -9.901306901850518E-1    1.171180063460783E-2    2.102295761825383E-5    1.742548050511314E-5    1.371502530094935E-5   -3.166849852382168E-5   -9.856070907693228E-1    2.093456433257876E-2
 1.134483510047324E6    -9.901368483079152E-1    1.167341332154842E-2   -2.129448975571488E-6    7.590235987429647E-6    5.884563777617815E-6    2.497999103012266E-5   -9.856829861313386E-1    2.113292670831301E-2
 1.136393733536794E6    -9.901296567156841E-1    1.169712814038463E-2    1.846528983846239E-5    1.083701844675996E-5    2.088767580983686E-5    7.683068101242528E-6   -9.855448397338477E-1    2.101024441701684E-2
 1.138307173427161E6    -9.900779503613228E-1    1.169359820057882E-2    1.610740668437285E-5    2.008365379119668E-5    9.900469619270483E-6    1.607203679755704E-5   -9.855875539037563E-1    2.110546047272512E-2
 1.140223835134146E6    -9.901754219700978E-1    1.174722791439325E-2    1.493284818075839E-6    1.794786296228168E-5    3.302739330288915E-6   -1.806632205013752E-6   -9.856175242556383E-1    2.126808265103839E-2
 1.142143724082585E6    -9.901299947638971E-1    1.182179076163028E-2   -4.734480886238033E-6   -7.970701455040330E-6   -1.018623366364253E-5   -3.525923938051122E-5   -9.856304108230990E-1    2.125851511804703E-2
 1.144066845706453E6    -9.900762764600320E-1    1.179905185532753E-2   -2.061352766195494E-5   -5.996656933078572E-6   -9.938075921338568E-6   -6.260596043665844E-6   -9.857227698083085E-1    2.119175073480606E-2
 1.145993205448873E6    -9.901217768803470E-1    1.182119246770074E-2   -1.712315118671861E-5    3.150057552495000E-5    3.314158285322072E-5   -6.654785510497045E-6   -9.855959095005148E-1    2.124705053307661E-2
 1.147922808762129E6    -9.900855460084550E-1    1.177414348390324E-2    1.992244755800003E-5    1.452307062246086E-6   -9.612853002601660E-7    5.544380541007156E-6   -9.856900331724495E-1    2.138468956230951E-2
 1.149855661107691E6    -9.901511219616951E-1    1.183460662105450E-2    9.140236989321194E-6    3.927981571566637E-6    1.147280108731078E-6    4.892457180742545E-6   -9.856392738591946E-1    2.134495338283702E-2
 1.151791767956222E6    -9.901408537848824E-1    1.171950224968808E-2   -3.295505373062011E-5   -2.712076376075387E-6    5.067394317199400E-7   -2.544800981149105E-5   -9.855712742304681E-1    2.128686978190093E-2
 1.153731134787597E6    -9.901174330067085E-1    1.184268841568236E-2   -1.720439826309878E-5    1.570140825010319E-6   -2.147483226778906E-5   -9.220922586623657E-6   -9.856822849787432E-1    2.134909443431778E-2
 1.155673767090922E6    -9.901018258258776E-1    1.190026708870685E-2   -6.598778583199714E-6   -1.268256601592880E-5   -5.029978164204902E-6   -2.546420888880072E-6   -9.855733270692576E-1    2.145172809659964E-2
 1.157619670364535E6    -9.900989057894073E-1    1.191880450303015E-2   -1.161444921174105E-6   -1.261606063632207E-5   -1.017985751834393E-5    2.220719275112420E-6   -9.856715775444755E-1    2.141090021468303E-2
 1.159568850116042E6    -9.902159077348894E-1    1.196007790265635E-2    7.343009607913398E-6   -1.627858610234667E-5   -2.844932710096093E-5   -3.821232877366595E-5   -9.855369880979368E-1    2.144704926807743E-2
 1.161521311862319E6    -9.901406767302242E-1    1.193671473786391E-2   -1.190244994444354E-5    6.806437488700793E-6    1.091734319780382E-6   -2.658336253349111E-5   -9.855008067885674E-1    2.156068463188410E-2
 1.163477061129531E6    -9.901116109487723E-1    1.195282545557895E-2   -9.900894275712434E-6    1.666888165654750E-5   -2.348810378443980E-6   -8.582450141620766E-6   -9.855746447338144E-1    2.152530231371710E-2
