#  HZ   S   RI   R     50.00 
! Rohde & Schwarz Vector Network Analyzer 
! Rohde-Schwarz,ZNLE4-2Port,1323001254200019,1.80.1.7492-24.08.1.42
! Created: UTC 2/23/2026, 7:02:17 AM
! freq[Hz]                re:S11                  im:S11                  re:S21                  im:S21                  re:S12                  im:S12                  re:S22                  im:S22
 1.000000000000000E6     9.972691218830325E-1   -7.273465901911468E-2    1.276445266429971E-5    1.811839135510220E-6   -7.252998387711442E-6    3.071433642863453E-7    9.973306354617364E-1   -7.304902087218075E-2
 1.001683782507681E6     9.971982673752205E-1   -7.293139363456923E-2   -2.130014150056689E-7   -2.942982184909480E-5   -3.622989955989964E-5   -9.925664979825123E-6    9.972542601504292E-1   -7.315105875885076E-2
 1.003370400138895E6     9.970526323776494E-1   -7.296574188872430E-2   -1.634053715316212E-5    2.874157911478072E-6    7.308593597980244E-7    3.222711064657055E-6    9.972456814306673E-1   -7.313932360507255E-2
 1.005059857667375E6     9.971729513337595E-1   -7.314200967975550E-2   -2.787644498824462E-6   -2.555369595776009E-5    1.905071184956456E-5   -2.625961604810638E-5    9.970905613150559E-1   -7.343138522247920E-2
 1.006752159874888E6     9.970668494256374E-1   -7.321940279139057E-2    8.381706215021678E-6   -5.830283552505533E-6    1.670787347602777E-5    1.927831034054851E-6    9.971029840536360E-1   -7.354512503026633E-2
 1.008447311551255E6     9.970496451233508E-1   -7.345375717789494E-2   -1.528596840768558E-5    3.599403208597795E-6   -6.161647375986849E-6    2.547255109705278E-5    9.971085127170947E-1   -7.367666847153853E-2
 1.010145317494363E6     9.970532453342095E-1   -7.345834858562510E-2    2.108382076677367E-5    2.476624933091474E-5    5.145285402324007E-6    1.801300903125552E-5    9.969486243848027E-1   -7.372623205573775E-2
 1.011846182510176E6     9.970401803501657E-1   -7.364197256352585E-2    1.479471822011777E-5    2.343895263072561E-6   -1.566197371067048E-5   -8.361022224715352E-7    9.971038702033976E-1   -7.394823491059173E-2
 1.013549911412752E6     9.970648031261465E-1   -7.371337614333867E-2    1.060690156355282E-5    7.547829245418439E-6    1.288025905230816E-5    1.024280506391643E-5    9.972104651034989E-1   -7.398737566402967E-2
 1.015256509024250E6     9.970248318822705E-1   -7.397989663902606E-2   -2.792682979617534E-5   -2.552863135340739E-6    2.946464671043443E-5    4.788721643386700E-6    9.972181635054881E-1   -7.407679105302466E-2
 1.016965980174955E6     9.969241614016484E-1   -7.402356356193304E-2   -2.514220957949260E-5    1.577332017546105E-5   -5.659341245264334E-7    2.836769725605194E-5    9.972824497385478E-1   -7.430101676684492E-2
 1.018678329703280E6     9.970000705502716E-1   -7.414680763409505E-2   -2.028593492920581E-5    1.860257822890321E-5    7.653212469999898E-6    7.239678039143875E-6    9.971876881031022E-1   -7.429779557682305E-2
 1.020393562455788E6     9.969315268015865E-1   -7.421722955693456E-2   -2.265755285937892E-5   -5.563978778428745E-6   -4.058371239248807E-6   -1.444532199573914E-5    9.971717092528587E-1   -7.455493926143372E-2
 1.022111683287203E6     9.969060172238771E-1   -7.449552409974426E-2   -1.127211132229707E-5    3.670756749794494E-6   -6.244107744933851E-6    2.759009250400171E-7    9.971453444254698E-1   -7.464352424540270E-2
 1.023832697060418E6     9.969441562272832E-1   -7.458579786633117E-2    7.046896502234114E-6   -2.044142601496373E-5    1.921242573582275E-5   -1.091132019696844E-5    9.971030564103356E-1   -7.477794741449613E-2
 1.025556608646520E6     9.969002244037719E-1   -7.468577416739505E-2    1.094622275909008E-6   -8.038197249631669E-6   -1.340044550835562E-6   -3.420837472631946E-6    9.970477137599513E-1   -7.495428398609799E-2
 1.027283422924796E6     9.969436099957664E-1   -7.486321242416105E-2    1.299809644617526E-6    2.106530162705905E-5   -5.407982026082822E-7   -1.273828416280865E-5    9.970043149029594E-1   -7.493744730537247E-2
 1.029013144782747E6     9.969025512559657E-1   -7.488043113808553E-2   -1.379948996560765E-5   -1.302518679783814E-5   -5.986511910347916E-6   -2.557961536763155E-5    9.970220590150591E-1   -7.512319721425260E-2
 1.030745779116106E6     9.968087769393400E-1   -7.509615984343100E-2    1.382683214238293E-5   -1.189362348853988E-6   -1.325300647348689E-6   -1.224444283943921E-5    9.971097223126733E-1   -7.526642327843303E-2
 1.032481330828849E6     9.967935989659117E-1   -7.521659041739946E-2   -1.439911890638874E-5    4.152885157719163E-7   -2.079918632996929E-6    2.988962586810257E-5    9.970301813958841E-1   -7.544437288738291E-2
 1.034219804833206E6     9.969524068841801E-1   -7.537329393426279E-2    9.806362443851186E-6    1.419529254075477E-5    3.589746848227977E-6    6.707960476759973E-6    9.970482097081839E-1   -7.546866196553970E-2
 1.035961206049681E6     9.968578370765292E-1   -7.539911427095849E-2   -1.452010328277494E-6    9.211423342847713E-6    6.794078927573036E-6   -1.795324845648328E-5    9.970080737062158E-1   -7.562483724948479E-2
 1.037705539407064E6     9.967809826141196E-1   -7.557727343497385E-2   -1.442024509773910E-5   -2.198704271664489E-5   -3.148741502260112E-6   -2.626301979857143E-5    9.969589496022279E-1   -7.573689945583623E-2
 1.039452809842441E6     9.968980920811006E-1   -7.565831618371255E-2    1.334120263876315E-5    1.419470566054394E-5   -1.069611735573585E-5    1.316516214546727E-5    9.969525007111005E-1   -7.581112875862013E-2
 1.041203022301215E6     9.968463881060029E-1   -7.572052253768771E-2    6.140138297073101E-6    2.225565665915605E-5    7.531660103147572E-6   -2.315878622322292E-6    9.970455027697218E-1   -7.593742382613078E-2
 1.042956181737111E6     9.968268186911641E-1   -7.601876844459993E-2    2.449490208043432E-5   -5.889134524006900E-6   -2.870891151514430E-6   -5.143243859067237E-6    9.970556656800103E-1   -7.607196014093086E-2
 1.044712293112197E6     9.969439089328910E-1   -7.609428271204521E-2    9.371266329735954E-6   -1.917887409258205E-6    5.006498931241146E-6    4.073201539759462E-6    9.969512482134454E-1   -7.626956191296917E-2
 1.046471361396899E6     9.967637515901681E-1   -7.612170662793455E-2    2.646442290353182E-6    1.544221382803290E-5   -4.409437344838266E-6    1.819828508566057E-5    9.968973318981342E-1   -7.640868613191421E-2
 1.048233391570008E6     9.967626519306055E-1   -7.623955150604302E-2   -1.097601380503226E-5   -2.723097275950312E-5    3.643687447949939E-5   -9.045754804624039E-6    9.968957681523011E-1   -7.657016043504980E-2
 1.049998388618702E6     9.967977097408154E-1   -7.640485617061052E-2   -1.226922192252669E-9   -2.588341028787386E-6   -5.759503188814066E-7    1.896260929005615E-5    9.968821102544698E-1   -7.666534570584074E-2
 1.051766357538552E6     9.967715070374389E-1   -7.665156223575913E-2    1.658447689410611E-5    5.101095391975889E-6    1.479500656373070E-5    8.122777839737800E-6    9.969499717591729E-1   -7.673844296008042E-2
 1.053537303333542E6     9.967770584999532E-1   -7.671002094419718E-2    2.424056257665803E-5   -2.454140987724712E-5    8.075880871167056E-6    1.107686527070480E-5    9.969107446451699E-1   -7.690220410546163E-2
 1.055311231016085E6     9.969001416335117E-1   -7.678453524425100E-2    5.158173036385608E-6    2.128971866123461E-5    2.449205155980731E-6    1.051448323213518E-5    9.968889570342273E-1   -7.706172940811705E-2
 1.057088145607029E6     9.966631513881569E-1   -7.694930111087740E-2    1.059779585413486E-5   -1.087403683336706E-5   -1.575950419597822E-5    2.213644133958357E-6    9.968338265415557E-1   -7.718558757800553E-2
 1.058868052135681E6     9.966284961209533E-1   -7.712266400479968E-2   -1.258745954793332E-5    1.674953280389771E-5    1.286245985069541E-5   -6.612059189350349E-7    9.968057963040414E-1   -7.732895736650082E-2
 1.060650955639809E6     9.965616045382591E-1   -7.712655069284499E-2    2.326088350378363E-5    5.581260342795229E-6    1.388839132189523E-5   -5.976851558603411E-6    9.969670515967461E-1   -7.749086151029784E-2
 1.062436861165670E6     9.966808696524384E-1   -7.744214899776734E-2   -1.093831964539815E-5   -1.450001282495469E-5   -1.340430773668286E-5    3.349562661507889E-5    9.968345025392122E-1   -7.765725831049214E-2
 1.064225773768016E6     9.967112156338701E-1   -7.744781163454548E-2   -1.091051048175141E-5   -5.685430713773005E-6    1.375164422086047E-6   -8.124171474711248E-6    9.968920792000682E-1   -7.773055413873209E-2
 1.066017698510110E6     9.966494869712225E-1   -7.764016471426263E-2    1.008847411190622E-5    3.838340676516754E-6   -4.770877882663347E-6    2.221052909274368E-5    9.968737907865994E-1   -7.773469245391741E-2
 1.067812640463741E6     9.967074546028839E-1   -7.774590877769741E-2    2.377576607956355E-6    1.808242458769562E-6   -2.493803311783220E-6   -7.983847951317651E-6    9.968273924558732E-1   -7.802610040998592E-2
 1.069610604709235E6     9.967161333713035E-1   -7.797308010336866E-2    7.180650191106057E-6   -2.654706435136421E-5   -2.225131329087132E-5   -1.458461229050270E-6    9.967479242722028E-1   -7.823571198389886E-2
 1.071411596335474E6     9.965894213578734E-1   -7.803247888204044E-2   -8.853613011041196E-6   -5.664947521508332E-6    3.499237390056086E-6    2.037220826482808E-6    9.967640965326420E-1   -7.826400831603875E-2
 1.073215620439910E6     9.966728834023683E-1   -7.811834774288064E-2   -2.027156874838376E-5    1.057097792856233E-5    5.328576502533067E-6    1.519893372214653E-5    9.967801639908116E-1   -7.845217283416643E-2
 1.075022682128577E6     9.965736524081799E-1   -7.829961846253748E-2   -1.397385918900351E-5    4.323875514845784E-6   -8.188634160386191E-6   -7.463719685993767E-6    9.967078898492658E-1   -7.839443000592976E-2
 1.076832786516107E6     9.965947187530452E-1   -7.837962337526491E-2   -1.010296953457014E-5   -2.171335742786500E-6   -1.239000009255216E-5    1.753382262691932E-5    9.966931725145955E-1   -7.863917750865823E-2
 1.078645938725740E6     9.965792009840890E-1   -7.857002654931544E-2   -1.302974491041128E-5    1.412853393482084E-6    3.234209765227817E-6    9.837734952396482E-6    9.967686562540946E-1   -7.870446764680006E-2
 1.080462143889348E6     9.965358659350189E-1   -7.866297690593509E-2   -4.318088067010128E-6   -1.262524148238935E-5   -3.938895151536971E-5    1.997415523093557E-5    9.966469824299168E-1   -7.881620538505155E-2
 1.082281407147440E6     9.964848940524610E-1   -7.876074296068136E-2    2.122033054265360E-7   -4.151920896039436E-6    1.213413029722944E-5   -8.887266487191111E-6    9.967652687279679E-1   -7.897440284717475E-2
 1.084103733649183E6     9.965745583566002E-1   -7.888459606333338E-2   -6.664046585120977E-6   -8.818986971986250E-7   -3.639467421042851E-6   -2.071919269060007E-5    9.968803595727451E-1   -7.916236739794601E-2
 1.085929128552413E6     9.966625576489103E-1   -7.901297628679742E-2    3.991133247077252E-5    1.942551213377321E-5   -2.424264547406300E-5    2.428373213885729E-5    9.967067561080395E-1   -7.923950108507682E-2
 1.087757597023653E6     9.965776609686655E-1   -7.914184591355283E-2    6.837721691188105E-6    2.605495617228018E-5   -6.936693829039935E-6    1.951216059094270E-5    9.967100296722561E-1   -7.932915744495195E-2
 1.089589144238118E6     9.964401844157702E-1   -7.927667121042262E-2    2.645545999777636E-5   -4.516079030288206E-6    2.853712932645485E-5   -5.536870835980815E-6    9.966443744101774E-1   -7.952273806881979E-2
 1.091423775379746E6     9.964991007460916E-1   -7.948442801619497E-2    1.437948393206282E-5    3.303801938852193E-6    2.864037211910032E-5    3.522573245384598E-6    9.966683811289714E-1   -7.973333338871857E-2
 1.093261495641197E6     9.964878707884152E-1   -7.959158424112535E-2   -1.943315090031026E-5   -1.721996131052805E-5   -1.479027405523883E-5    7.844332248212076E-6    9.966181329854510E-1   -7.977336642315928E-2
 1.095102310223878E6     9.964829598859929E-1   -7.975140100743323E-2    1.034212974742638E-6    2.776339694821836E-6    1.472320737481266E-5   -1.158670355013263E-5    9.968157910153053E-1   -7.998430505561870E-2
 1.096946224337957E6     9.964825659889310E-1   -7.988791453705950E-2   -7.313862707424999E-6   -4.521232243343996E-7    1.897014392145267E-5    2.395237382414979E-5    9.967066957487718E-1   -7.999905708734312E-2
 1.098793243202363E6     9.964478798992642E-1   -8.005509177164928E-2    6.968580984126745E-6   -2.035466117284561E-5   -1.295368412726616E-6   -2.231177153029393E-5    9.967256080544707E-1   -8.014556132700155E-2
 1.100643372044825E6     9.964398545291530E-1   -8.004541554655820E-2   -1.774472164851697E-5   -2.475769561366708E-5   -2.256635868754058E-5   -6.772675482226828E-6    9.965814508083553E-1   -8.025231658742192E-2
 1.102496616101869E6     9.963439773473660E-1   -8.025219907515177E-2   -1.621827899286846E-5   -1.646388521229592E-5    1.102832748873646E-5   -1.954027962650397E-5    9.967183337994167E-1   -8.037656281755901E-2
 1.104352980618839E6     9.964574362222626E-1   -8.030307718993708E-2   -2.049909270053581E-5   -1.020622095217865E-5   -8.093968133285015E-6   -1.368238621205235E-5    9.966525104462201E-1   -8.056292219127709E-2
 1.106212470849912E6     9.963758195326846E-1   -8.049831056742530E-2   -1.674312608671285E-5   -9.854598540189563E-6    6.941800848668792E-7    3.480863141518211E-5    9.966528385113520E-1   -8.078876243578093E-2
 1.108075092058108E6     9.963790686831893E-1   -8.058397689408939E-2    2.976082573672271E-5    5.231262729666286E-7   -4.203097594513791E-6   -3.462734655478508E-5    9.965825487924204E-1   -8.094475912707984E-2
 1.109940849515312E6     9.964558013493722E-1   -8.073077223441961E-2    2.260889231231101E-5    1.398012614899647E-5   -1.064273398669126E-5    6.778671786603352E-6    9.965350361641738E-1   -8.101378915270424E-2
 1.111809748502287E6     9.963789581908018E-1   -8.098128164283408E-2    1.097966000192166E-5   -4.053447585525686E-6   -1.333291724843379E-5    3.546948215250954E-5    9.965726471983506E-1   -8.128863033116437E-2
 1.113681794308684E6     9.962962764607020E-1   -8.109352916818605E-2   -5.118856137068153E-6    5.457009520704883E-5   -1.931279954823102E-5    1.866159675818827E-5    9.967160633963921E-1   -8.118689771317120E-2
 1.115556992233066E6     9.964399290125820E-1   -8.125348065572413E-2   -1.435848970579357E-5   -2.093882793051122E-5   -1.114632353289291E-5    9.714756040409758E-7    9.965001499041477E-1   -8.137308408456123E-2
 1.117435347582909E6     9.964860486378239E-1   -8.131098797207810E-2    2.936965597759316E-6    1.615040112355132E-5   -4.949564445080680E-6   -1.954570092940524E-5    9.964953232851704E-1   -8.153177923689736E-2
 1.119316865674633E6     9.963654005897580E-1   -8.151476018092081E-2   -4.957024163899064E-6    1.726110890859816E-5    4.346569732733907E-6    1.329368959897320E-5    9.966414230016473E-1   -8.169847922623427E-2
 1.121201551833608E6     9.964903297923710E-1   -8.159334821699386E-2    1.350860443270061E-5   -2.760859059328541E-5    1.214949170052080E-5   -5.115170950417416E-6    9.965774959445503E-1   -8.183967121249304E-2
 1.123089411394170E6     9.964270895330745E-1   -8.179395153681164E-2   -2.129856017428741E-6    2.286818405270608E-6    2.599434725896238E-5    9.799619541030007E-6    9.965110039502644E-1   -8.192778222387333E-2
 1.124980449699640E6     9.963925872387975E-1   -8.177906361684593E-2    9.546232760123509E-6   -2.703506810609556E-5    1.206514771605950E-5    1.741864163578608E-5    9.965032855830419E-1   -8.222560820601496E-2
 1.126874672102327E6     9.961721859695646E-1   -8.207602043458551E-2   -1.268184908820534E-5    1.759848552423957E-6   -2.083986677399193E-5   -9.820133693617863E-6    9.965778918276713E-1   -8.226282770783179E-2
 1.128772083963561E6     9.963793108200714E-1   -8.215882467994656E-2    3.811094879575028E-6   -2.384187516847802E-6    2.346249234484421E-5   -1.668032709574328E-6    9.964354148449197E-1   -8.232277756693854E-2
 1.130672690653698E6     9.962750887808967E-1   -8.240333199400263E-2    2.575701030711410E-5   -9.684930834412715E-6    1.110897939427349E-5    8.405296418113325E-6    9.965239486319127E-1   -8.260201341844835E-2
 1.132576497552133E6     9.963225143632057E-1   -8.243274770052444E-2   -2.384961190596850E-6   -3.267603642260278E-6    3.081121049974442E-6    2.107941716149146E-5    9.963794484233955E-1   -8.259906215271275E-2
 1.134483510047324E6     9.962642960196069E-1   -8.258511008568994E-2   -2.877755035944602E-6   -1.443086578764463E-5    1.169671729816015E-5   -6.701581428951999E-6    9.963580709933693E-1   -8.277207929042135E-2
 1.136393733536794E6     9.962890376775380E-1   -8.283838500711647E-2   -3.739294432456665E-5   -1.492872597326927E-5   -2.127059997352118E-5    1.291825227058111E-6    9.965422045098035E-1   -8.293728550675517E-2
 1.138307173427161E6     9.962126964195581E-1   -8.283748720400054E-2   -4.668801290911927E-6   -9.322743778811855E-7    1.418562509040762E-5   -7.172937183187689E-6    9.964825865217481E-1   -8.309027560592189E-2
 1.140223835134146E6     9.962963029945259E-1   -8.298947019154344E-2    4.987311137331781E-6   -1.689527913847915E-5    4.414029487994139E-6    1.376641626873133E-5    9.964222093424342E-1   -8.329815234027511E-2
 1.142143724082585E6     9.963698012751144E-1   -8.313801027639739E-2   -2.446095215320726E-5   -3.352780095021279E-6   -1.889428850594136E-5    9.752684121132208E-6    9.965371676206477E-1   -8.331633274018789E-2
 1.144066845706453E6     9.961123574475593E-1   -8.321378390454739E-2    2.461572811267859E-5   -7.400816057174892E-6   -1.805843496033599E-5   -4.729658973862740E-7    9.963829576870501E-1   -8.356383537607408E-2
 1.145993205448873E6     9.961423094891954E-1   -8.338728091730338E-2    6.818318831289476E-6   -7.226367386386477E-6   -2.342865995576749E-5    5.015168637034403E-6    9.964254443637977E-1   -8.367133712007868E-2
 1.147922808762129E6     9.962088566640758E-1   -8.345360390967559E-2   -2.880576847770873E-5   -1.831614057114302E-5    1.118099302467556E-5    2.140251238070440E-5    9.963766361991945E-1   -8.376892511929405E-2
 1.149855661107691E6     9.961188372721336E-1   -8.372811129656813E-2    9.678013770866971E-7   -1.146177469973389E-6   -1.784243075127439E-6    2.593024937104912E-6    9.963735058108050E-1   -8.397397051113345E-2
 1.151791767956222E6     9.961396059178699E-1   -8.373776286367421E-2   -2.510044045830779E-5    8.925224991492095E-6   -6.270504598110176E-6    1.063762821568523E-5    9.962970602278298E-1   -8.417171937149266E-2
 1.153731134787597E6     9.961829642776890E-1   -8.395253360167741E-2   -1.330051083658385E-5    1.842204492123079E-5    1.714489472780093E-5   -2.290822478339623E-5    9.962929363432217E-1   -8.420035649278891E-2
 1.155673767090922E6     9.961668227586700E-1   -8.420438305091464E-2    2.270781834433126E-5   -4.172997254556449E-7   -5.182095935834445E-6    1.585999041261163E-5    9.963005532006464E-1   -8.432315845348086E-2
 1.157619670364535E6     9.961018065799939E-1   -8.417813040962548E-2   -1.420681282328980E-5    2.377143572308887E-5   -1.395594730649543E-5    4.026635990042479E-5    9.963367422012829E-1   -8.442914011404515E-2
 1.159568850116042E6     9.961004820950591E-1   -8.433269691608937E-2   -2.183433623898346E-5   -2.561826732839475E-5   -4.846604526625583E-6   -2.251688666465897E-5    9.963575983346415E-1   -8.472137666471938E-2
 1.161521311862319E6     9.960663838225103E-1   -8.461010818351249E-2   -4.552013274012558E-6    2.235890893473263E-6   -2.082466867369493E-5    2.866309752174288E-6    9.962676062688651E-1   -8.472950156976169E-2
 1.163477061129531E6     9.960152944795220E-1   -8.465527826183886E-2    3.551136355437279E-6   -8.780516861189477E-6    1.840375988074581E-5   -1.967525876600383E-5    9.962822631998339E-1   -8.485207557781110E-2
