! Mini-Circuits										
! S5P DATA File Format										
! Type: 4 Way 0 degree Power Splitter										
! Model: AD4PS-1+         										
! PINOUT: SUMPORT=PORT1 , OUT1 PORT=PORT2 , OUT2 PORT=PORT3 , OUT3 PORT=PORT4 , OUT4 PORT=PORT5										
! TEST CONDITIONS: INPUT POWER = 0 dBm @ Temperature = + 25 deg C										
! 401 Frequency points										
!										
! All S Parameters are in dB deg format										
!										
# MHz S DB R 50										
!										
!FREQ    MAG(S11)PHS(S11)MAG(S12)PHS(S12)MAG(S13)PHS(S13)MAG(S14)PHS(S14)MAG(S15)PHS(S15)  
!	 MAG(S21)PHS(S21)MAG(S22)PHS(S22)MAG(S23)PHS(S23)MAG(S24)PHS(S24)MAG(S25)PHS(S25)  
!	 MAG(S31)PHS(S31)MAG(S32)PHS(S32)MAG(S33)PHS(S33)MAG(S34)PHS(S34)MAG(S35)PHS(S35)  
!	 MAG(S41)PHS(S41)MAG(S42)PHS(S42)MAG(S43)PHS(S43)MAG(S44)PHS(S44)MAG(S45)PHS(S45)  
!	 MAG(S51)PHS(S51)MAG(S52)PHS(S52)MAG(S53)PHS(S53)MAG(S54)PHS(S54)MAG(S55)PHS(S55)  
!										
1	-20.09	134.29	-6.64	3.72	-6.62	3.56	-6.64	3.60	-6.65	3.56
	-6.66	3.67	-17.61	138.79	-27.62	-31.18	-56.55	-74.11	-56.30	-74.29
	-6.65	3.84	-27.63	-31.05	-17.59	138.96	-56.81	-72.28	-56.58	-74.19
	-6.65	3.69	-56.52	-73.74	-56.78	-73.50	-17.87	138.42	-28.57	-31.99
	-6.66	3.63	-56.47	-74.44	-56.45	-73.62	-28.57	-32.02	-17.89	138.43
3	-24.97	141.10	-6.45	0.61	-6.44	0.51	-6.45	0.58	-6.46	0.58
	-6.47	0.62	-22.10	146.41	-31.51	-25.14	-66.60	81.64	-67.55	81.71
	-6.46	0.74	-31.52	-25.03	-22.11	146.78	-64.59	83.15	-66.51	80.42
	-6.46	0.65	-66.36	81.72	-64.51	82.05	-22.37	147.24	-32.32	-23.42
	-6.46	0.67	-67.90	81.27	-66.43	81.64	-32.31	-23.51	-22.38	147.32
5	-26.78	145.44	-6.41	-0.81	-6.40	-0.88	-6.42	-0.84	-6.43	-0.82
	-6.44	-0.77	-23.65	152.46	-32.91	-17.50	-57.38	77.05	-57.96	75.83
	-6.43	-0.68	-32.93	-17.30	-23.65	153.19	-56.15	77.70	-57.42	76.51
	-6.42	-0.77	-57.37	77.43	-56.07	78.29	-23.86	153.84	-33.54	-15.49
	-6.42	-0.74	-58.17	76.17	-57.40	77.82	-33.53	-15.61	-23.85	154.02
6.99	-27.70	147.75	-6.40	-1.91	-6.39	-1.92	-6.40	-1.90	-6.41	-1.87
	-6.43	-1.82	-24.38	156.24	-33.49	-11.18	-54.08	75.02	-54.79	74.30
	-6.42	-1.74	-33.50	-11.10	-24.37	157.17	-53.05	76.48	-54.07	75.78
	-6.41	-1.80	-54.11	76.04	-53.02	76.31	-24.53	157.77	-34.01	-9.67
	-6.41	-1.78	-54.83	74.10	-54.07	75.00	-34.00	-9.75	-24.54	157.95
8.99	-28.28	149.33	-6.41	-2.99	-6.40	-3.04	-6.42	-3.00	-6.42	-2.96
	-6.44	-2.90	-24.77	159.21	-33.75	-6.45	-52.00	74.42	-52.73	73.57
	-6.43	-2.81	-33.77	-6.27	-24.77	160.35	-50.83	76.25	-52.05	74.17
	-6.42	-2.88	-52.01	74.82	-50.89	75.82	-24.87	160.80	-34.21	-5.52
	-6.43	-2.86	-52.65	74.25	-51.97	74.44	-34.19	-5.57	-24.90	161.20
10	-28.48	149.90	-6.42	-3.54	-6.41	-3.59	-6.43	-3.56	-6.43	-3.53
	-6.45	-3.44	-24.88	160.54	-33.79	-4.58	-51.23	74.00	-51.95	73.13
	-6.44	-3.39	-33.81	-4.41	-24.88	161.68	-50.04	75.89	-51.23	74.12
	-6.43	-3.43	-51.23	74.63	-50.07	75.73	-24.98	162.08	-34.23	-3.76
	-6.44	-3.41	-51.89	73.79	-51.21	74.19	-34.22	-3.84	-25.00	162.66
12.99	-28.93	149.91	-6.43	-4.89	-6.42	-4.96	-6.44	-4.93	-6.44	-4.88
	-6.46	-4.81	-25.17	162.73	-33.80	0.42	-49.05	73.41	-49.74	72.68
	-6.45	-4.75	-33.82	0.62	-25.15	164.13	-47.93	75.48	-49.13	73.93
	-6.45	-4.79	-49.06	73.92	-47.94	75.42	-25.25	164.32	-34.23	0.83
	-6.45	-4.75	-49.80	72.83	-49.11	73.64	-34.23	0.62	-25.24	165.14
14.98	-29.13	148.59	-6.43	-5.66	-6.42	-5.67	-6.43	-5.65	-6.44	-5.60
	-6.46	-5.53	-25.30	162.72	-33.71	3.17	-47.92	73.72	-48.61	72.79
	-6.44	-5.46	-33.72	3.34	-25.29	164.50	-46.79	75.15	-47.99	73.42
	-6.44	-5.51	-47.94	73.71	-46.78	75.64	-25.37	164.63	-34.13	3.25
	-6.44	-5.48	-48.67	72.98	-47.97	73.47	-34.12	3.08	-25.37	165.47
16.98	-29.25	147.18	-6.43	-6.41	-6.42	-6.42	-6.43	-6.41	-6.44	-6.37
	-6.46	-6.29	-25.40	162.89	-33.60	5.47	-46.94	72.99	-47.68	72.33
	-6.45	-6.22	-33.60	5.60	-25.37	164.86	-45.74	74.81	-47.01	73.21
	-6.44	-6.25	-46.99	73.81	-45.78	75.00	-25.45	164.76	-34.01	5.22
	-6.44	-6.23	-47.69	72.72	-47.00	73.26	-34.01	5.02	-25.47	165.80
18.98	-29.36	145.68	-6.43	-7.13	-6.42	-7.15	-6.43	-7.15	-6.44	-7.11
	-6.46	-7.03	-25.46	162.77	-33.45	7.38	-46.04	72.73	-46.79	72.13
	-6.45	-6.95	-33.47	7.51	-25.43	164.86	-44.90	74.64	-46.10	73.01
	-6.44	-6.99	-46.07	73.10	-44.93	74.72	-25.51	164.80	-33.89	6.91
	-6.44	-6.93	-46.78	72.08	-46.10	73.04	-33.88	6.75	-25.54	165.72
20.98	-29.42	143.79	-6.43	-7.88	-6.42	-7.90	-6.43	-7.88	-6.44	-7.83
	-6.46	-7.74	-25.51	162.39	-33.30	8.99	-45.23	72.56	-45.98	71.66
	-6.45	-7.66	-33.31	9.16	-25.50	164.80	-44.10	74.12	-45.30	72.46
	-6.44	-7.73	-45.25	72.71	-44.12	74.30	-25.54	164.68	-33.77	8.29
	-6.45	-7.67	-45.99	71.29	-45.30	72.46	-33.74	8.21	-25.58	165.73
22.97	-29.47	142.11	-6.43	-8.61	-6.42	-8.61	-6.43	-8.63	-6.44	-8.56
	-6.47	-8.48	-25.55	161.95	-33.15	10.37	-44.55	72.09	-45.29	71.29
	-6.45	-8.39	-33.18	10.52	-25.52	164.67	-43.36	73.73	-44.60	72.02
	-6.45	-8.43	-44.54	72.36	-43.37	74.19	-25.58	164.44	-33.62	9.64
	-6.45	-8.38	-45.26	71.04	-44.59	71.98	-33.61	9.42	-25.61	165.43
24.97	-29.46	140.27	-6.43	-9.35	-6.43	-9.34	-6.44	-9.36	-6.45	-9.28
	-6.47	-9.20	-25.58	161.37	-33.00	11.62	-43.84	71.53	-44.61	70.63
	-6.46	-9.11	-33.02	11.79	-25.55	164.39	-42.69	73.46	-43.89	71.64
	-6.45	-9.19	-43.91	72.04	-42.69	73.40	-25.59	164.12	-33.49	10.74
	-6.45	-9.12	-44.59	70.59	-43.94	71.61	-33.47	10.57	-25.64	165.09
26.97	-29.47	138.32	-6.44	-10.08	-6.43	-10.05	-6.44	-10.08	-6.45	-10.02
	-6.47	-9.90	-25.59	160.77	-32.86	12.74	-43.25	70.88	-44.00	70.13
	-6.46	-9.84	-32.87	12.89	-25.57	163.97	-42.05	72.80	-43.34	71.11
	-6.45	-9.89	-43.26	71.27	-42.09	73.12	-25.62	163.54	-33.35	11.75
	-6.45	-9.82	-44.02	70.18	-43.28	71.09	-33.34	11.44	-25.67	164.71
28.97	-29.43	136.27	-6.44	-10.80	-6.43	-10.76	-6.44	-10.78	-6.45	-10.72
	-6.48	-10.65	-25.62	160.19	-32.71	13.67	-42.67	70.68	-43.47	69.66
	-6.46	-10.54	-32.72	13.83	-25.59	163.58	-41.47	72.42	-42.73	70.67
	-6.45	-10.61	-42.68	70.86	-41.47	72.67	-25.61	163.14	-33.22	12.58
	-6.45	-10.55	-43.46	69.38	-42.72	70.44	-33.20	12.34	-25.69	164.22
30.96	-29.39	134.33	-6.44	-11.51	-6.44	-11.49	-6.45	-11.52	-6.45	-11.45
	-6.48	-11.37	-25.62	159.49	-32.57	14.53	-42.18	70.00	-42.93	68.99
	-6.46	-11.27	-32.58	14.65	-25.61	163.21	-40.97	71.67	-42.22	70.16
	-6.46	-11.34	-42.16	70.23	-40.97	71.99	-25.63	162.51	-33.08	13.32
	-6.46	-11.28	-42.95	69.05	-42.19	70.24	-33.07	13.11	-25.69	163.71
32.96	-29.34	132.32	-6.45	-12.24	-6.44	-12.20	-6.45	-12.24	-6.46	-12.15
	-6.49	-12.09	-25.61	158.72	-32.42	15.33	-41.63	69.48	-42.45	68.49
	-6.47	-12.00	-32.43	15.40	-25.62	162.65	-40.43	71.36	-41.75	69.55
	-6.46	-12.06	-41.67	69.61	-40.48	71.35	-25.66	162.05	-32.96	13.88
	-6.46	-11.99	-42.45	68.50	-41.71	69.63	-32.94	13.85	-25.71	163.26
34.96	-29.31	130.45	-6.45	-12.95	-6.44	-12.94	-6.46	-12.97	-6.46	-12.90
	-6.49	-12.82	-25.62	157.95	-32.27	15.92	-41.23	68.67	-41.95	67.82
	-6.47	-12.71	-32.29	16.09	-25.64	162.08	-39.98	70.71	-41.25	69.05
	-6.46	-12.77	-41.25	69.10	-40.00	70.85	-25.64	161.48	-32.83	14.64
	-6.47	-12.68	-42.00	67.90	-41.22	69.10	-32.82	14.42	-25.73	162.66
36.96	-29.26	128.58	-6.45	-13.69	-6.45	-13.66	-6.46	-13.69	-6.47	-13.61
	-6.49	-13.52	-25.62	157.20	-32.15	16.61	-40.75	68.16	-41.57	67.10
	-6.47	-13.45	-32.14	16.71	-25.65	161.56	-39.55	70.20	-40.81	68.42
	-6.47	-13.52	-40.82	68.27	-39.57	70.37	-25.65	160.83	-32.71	15.17
	-6.47	-13.41	-41.59	67.18	-40.84	68.51	-32.68	14.97	-25.73	162.03
38.95	-29.21	126.69	-6.46	-14.42	-6.45	-14.37	-6.47	-14.40	-6.47	-14.30
	-6.50	-14.24	-25.63	156.46	-32.01	17.12	-40.33	67.58	-41.16	66.65
	-6.48	-14.13	-32.01	17.26	-25.65	161.15	-39.15	69.65	-40.41	67.86
	-6.47	-14.22	-40.35	67.77	-39.14	69.68	-25.67	160.17	-32.58	15.56
	-6.47	-14.13	-41.17	66.69	-40.39	67.73	-32.57	15.39	-25.75	161.53
40.95	-29.13	124.79	-6.46	-15.11	-6.46	-15.12	-6.47	-15.13	-6.48	-15.05
	-6.50	-14.97	-25.63	155.74	-31.86	17.58	-39.96	66.85	-40.74	66.11
	-6.48	-14.86	-31.88	17.75	-25.68	160.53	-38.73	69.03	-40.01	67.24
	-6.47	-14.95	-39.95	67.42	-38.76	69.22	-25.67	159.56	-32.45	16.04
	-6.47	-14.85	-40.73	65.69	-40.02	67.04	-32.43	15.84	-25.79	161.07
42.95	-29.10	123.17	-6.47	-15.84	-6.46	-15.80	-6.47	-15.85	-6.48	-15.75
	-6.51	-15.67	-25.63	154.98	-31.73	18.06	-39.56	66.30	-40.37	65.28
	-6.49	-15.58	-31.74	18.20	-25.68	160.00	-38.36	68.55	-39.64	66.57
	-6.48	-15.67	-39.62	66.49	-38.38	68.56	-25.68	158.98	-32.35	16.53
	-6.48	-15.56	-40.34	65.17	-39.63	66.72	-32.31	16.27	-25.77	160.40
44.95	-29.03	121.48	-6.47	-16.55	-6.47	-16.52	-6.48	-16.56	-6.48	-16.44
	-6.51	-16.41	-25.64	154.16	-31.60	18.46	-39.23	65.88	-40.06	64.78
	-6.49	-16.29	-31.61	18.59	-25.71	159.40	-37.99	67.99	-39.29	66.04
	-6.48	-16.39	-39.25	66.08	-38.02	68.04	-25.68	158.41	-32.22	16.79
	-6.48	-16.27	-40.01	64.68	-39.27	65.87	-32.21	16.68	-25.78	159.84
46.94	-29.00	119.60	-6.47	-17.24	-6.47	-17.21	-6.48	-17.28	-6.49	-17.18
	-6.51	-17.11	-25.65	153.39	-31.46	18.83	-38.91	65.23	-39.69	64.31
	-6.49	-17.00	-31.48	18.96	-25.73	158.87	-37.64	67.29	-38.96	65.38
	-6.49	-17.10	-38.91	65.20	-37.65	67.45	-25.71	157.82	-32.10	17.15
	-6.48	-16.97	-39.68	64.29	-38.94	65.42	-32.10	17.02	-25.80	159.41
48.94	-28.95	118.08	-6.47	-17.99	-6.47	-17.93	-6.48	-18.00	-6.49	-17.88
	-6.51	-17.83	-25.65	152.67	-31.34	19.17	-38.60	64.57	-39.37	63.44
	-6.50	-17.73	-31.35	19.31	-25.76	158.37	-37.33	66.78	-38.64	64.75
	-6.49	-17.81	-38.58	64.73	-37.34	67.02	-25.73	157.25	-31.99	17.44
	-6.49	-17.71	-39.35	63.48	-38.65	64.61	-31.98	17.27	-25.83	158.80
50.94	-28.92	116.45	-6.48	-18.70	-6.48	-18.66	-6.49	-18.71	-6.49	-18.58
	-6.52	-18.52	-25.66	151.92	-31.22	19.46	-38.28	64.14	-39.04	62.78
	-6.50	-18.44	-31.23	19.59	-25.78	157.80	-37.02	66.20	-38.32	64.16
	-6.49	-18.54	-38.27	64.18	-37.04	66.43	-25.73	156.65	-31.87	17.74
	-6.49	-18.41	-39.06	62.77	-38.31	64.04	-31.86	17.51	-25.84	158.37
52.94	-28.86	114.75	-6.48	-19.40	-6.48	-19.35	-6.49	-19.42	-6.49	-19.29
	-6.52	-19.27	-25.68	151.26	-31.09	19.75	-37.97	63.20	-38.75	62.28
	-6.51	-19.15	-31.11	19.85	-25.80	157.23	-36.70	65.61	-38.01	63.53
	-6.49	-19.25	-37.98	63.53	-36.73	65.77	-25.75	156.07	-31.76	17.99
	-6.50	-19.14	-38.74	62.13	-38.00	63.32	-31.75	17.79	-25.87	157.86
54.93	-28.80	112.91	-6.49	-20.10	-6.48	-20.08	-6.50	-20.14	-6.50	-20.00
	-6.52	-19.96	-25.69	150.40	-30.98	19.90	-37.67	62.72	-38.47	61.61
	-6.51	-19.87	-30.98	20.10	-25.84	156.69	-36.43	65.05	-37.74	62.82
	-6.50	-19.98	-37.69	63.02	-36.43	65.29	-25.79	155.57	-31.67	18.20
	-6.50	-19.83	-38.46	61.55	-37.71	62.86	-31.65	17.95	-25.90	157.38
56.93	-28.77	111.29	-6.49	-20.82	-6.49	-20.78	-6.50	-20.84	-6.50	-20.70
	-6.53	-20.69	-25.69	149.76	-30.86	20.07	-37.38	62.13	-38.20	61.04
	-6.51	-20.58	-30.86	20.29	-25.86	156.25	-36.16	64.47	-37.45	62.28
	-6.50	-20.68	-37.42	62.25	-36.15	64.77	-25.81	154.93	-31.55	18.33
	-6.50	-20.54	-38.18	60.96	-37.46	62.19	-31.54	18.15	-25.94	156.82
58.93	-28.72	109.64	-6.49	-21.55	-6.49	-21.48	-6.50	-21.57	-6.51	-21.42
	-6.53	-21.39	-25.71	148.99	-30.73	20.35	-37.13	61.47	-37.95	60.35
	-6.52	-21.29	-30.75	20.46	-25.90	155.60	-35.88	63.91	-37.19	61.66
	-6.51	-21.39	-37.12	61.70	-35.89	64.06	-25.83	154.34	-31.44	18.52
	-6.51	-21.25	-37.93	60.18	-37.18	61.64	-31.43	18.34	-25.97	156.27
60.93	-28.66	107.93	-6.50	-22.26	-6.49	-22.20	-6.51	-22.29	-6.51	-22.13
	-6.53	-22.11	-25.73	148.25	-30.62	20.47	-36.87	60.82	-37.68	59.61
	-6.52	-22.02	-30.63	20.60	-25.94	155.04	-35.62	63.38	-36.93	61.00
	-6.51	-22.10	-36.87	61.11	-35.62	63.53	-25.86	153.77	-31.32	18.66
	-6.51	-21.98	-37.67	59.66	-36.92	61.00	-31.33	18.49	-26.00	155.77
62.92	-28.61	106.31	-6.50	-22.97	-6.50	-22.91	-6.51	-23.00	-6.51	-22.84
	-6.54	-22.83	-25.75	147.49	-30.51	20.55	-36.63	60.27	-37.46	58.93
	-6.52	-22.70	-30.52	20.70	-25.98	154.53	-35.36	62.78	-36.68	60.41
	-6.51	-22.83	-36.64	60.47	-35.37	62.88	-25.89	153.27	-31.22	18.80
	-6.51	-22.69	-37.42	58.98	-36.68	60.36	-31.22	18.63	-26.05	155.24
64.92	-28.53	104.61	-6.50	-23.68	-6.50	-23.64	-6.51	-23.69	-6.52	-23.54
	-6.54	-23.52	-25.77	146.74	-30.39	20.68	-36.39	59.59	-37.18	58.36
	-6.53	-23.41	-30.40	20.85	-26.00	154.00	-35.13	62.14	-36.45	59.88
	-6.51	-23.55	-36.40	59.85	-35.14	62.42	-25.92	152.65	-31.12	18.81
	-6.51	-23.40	-37.19	58.25	-36.44	59.71	-31.12	18.73	-26.08	154.62
66.92	-28.45	102.79	-6.51	-24.38	-6.50	-24.34	-6.52	-24.43	-6.52	-24.25
	-6.54	-24.25	-25.79	145.89	-30.27	20.76	-36.15	58.96	-36.96	57.71
	-6.53	-24.14	-30.29	20.95	-26.05	153.44	-34.87	61.61	-36.21	59.13
	-6.52	-24.24	-36.16	59.28	-34.90	61.75	-25.96	151.93	-31.02	19.03
	-6.52	-24.09	-36.96	57.59	-36.21	59.05	-31.02	18.75	-26.12	154.14
68.92	-28.38	101.04	-6.51	-25.07	-6.51	-25.04	-6.52	-25.11	-6.52	-24.96
	-6.55	-24.94	-25.82	145.05	-30.16	20.90	-35.94	58.40	-36.75	57.01
	-6.53	-24.85	-30.18	20.99	-26.09	152.83	-34.66	60.99	-35.98	58.54
	-6.52	-24.97	-35.92	58.57	-34.67	61.25	-26.00	151.31	-30.92	18.96
	-6.52	-24.82	-36.73	57.09	-35.98	58.55	-30.91	18.80	-26.16	153.52
70.91	-28.27	99.35	-6.52	-25.79	-6.51	-25.77	-6.52	-25.85	-6.52	-25.67
	-6.55	-25.68	-25.83	144.32	-30.05	20.89	-35.72	57.69	-36.52	56.46
	-6.54	-25.56	-30.07	21.05	-26.14	152.15	-34.44	60.40	-35.76	57.89
	-6.52	-25.68	-35.70	57.98	-34.44	60.59	-26.03	150.70	-30.82	19.01
	-6.52	-25.50	-36.51	56.36	-35.76	57.95	-30.82	18.91	-26.20	152.96
72.91	-28.18	97.59	-6.52	-26.52	-6.52	-26.45	-6.52	-26.55	-6.53	-26.36
	-6.55	-26.38	-25.85	143.46	-29.95	20.91	-35.50	57.03	-36.31	55.78
	-6.54	-26.24	-29.96	21.08	-26.17	151.49	-34.22	59.84	-35.55	57.29
	-6.53	-26.39	-35.52	57.37	-34.23	60.01	-26.06	149.98	-30.72	19.06
	-6.53	-26.22	-36.30	55.74	-35.56	57.16	-30.72	18.94	-26.24	152.33
74.91	-28.07	95.94	-6.52	-27.23	-6.52	-27.18	-6.53	-27.27	-6.53	-27.08
	-6.55	-27.06	-25.86	142.61	-29.85	20.95	-35.29	56.47	-36.10	55.05
	-6.54	-26.97	-29.85	21.08	-26.21	150.97	-34.01	59.33	-35.35	56.65
	-6.53	-27.08	-35.29	56.65	-34.02	59.44	-26.09	149.17	-30.62	19.06
	-6.53	-26.90	-36.11	55.12	-35.35	56.64	-30.62	18.94	-26.27	151.66
76.91	-27.94	94.16	-6.52	-27.93	-6.52	-27.87	-6.53	-27.97	-6.53	-27.79
	-6.56	-27.80	-25.89	141.81	-29.73	20.93	-35.09	55.86	-35.90	54.48
	-6.54	-27.67	-29.75	21.08	-26.26	150.28	-33.80	58.69	-35.14	56.12
	-6.53	-27.82	-35.09	56.04	-33.81	58.85	-26.12	148.47	-30.53	19.07
	-6.53	-27.61	-35.91	54.51	-35.14	56.02	-30.53	18.89	-26.31	151.05
78.90000000000001	-27.84	92.48	-6.53	-28.63	-6.53	-28.57	-6.53	-28.68	-6.53	-28.50
	-6.56	-28.50	-25.90	140.96	-29.63	20.97	-34.90	55.25	-35.72	53.88
	-6.55	-28.37	-29.65	21.03	-26.30	149.54	-33.62	58.12	-34.94	55.46
	-6.54	-28.52	-34.89	55.43	-33.62	58.27	-26.16	147.86	-30.44	19.10
	-6.53	-28.32	-35.71	53.83	-34.93	55.35	-30.43	18.90	-26.35	150.42
80.90000000000001	-27.71	90.89	-6.53	-29.34	-6.53	-29.29	-6.54	-29.37	-6.54	-29.18
	-6.56	-29.21	-25.91	140.11	-29.53	20.89	-34.70	54.60	-35.52	53.27
	-6.55	-29.08	-29.54	21.00	-26.33	149.01	-33.41	57.52	-34.76	54.78
	-6.54	-29.25	-34.71	54.79	-33.43	57.65	-26.18	147.13	-30.34	18.96
	-6.54	-29.04	-35.51	53.29	-34.74	54.74	-30.34	18.88	-26.38	149.75
82.90000000000001	-27.58	89.17	-6.53	-30.05	-6.53	-29.99	-6.54	-30.10	-6.54	-29.90
	-6.56	-29.94	-25.92	139.13	-29.43	20.87	-34.52	54.06	-35.33	52.49
	-6.55	-29.79	-29.45	20.94	-26.37	148.26	-33.23	56.96	-34.58	54.32
	-6.54	-29.92	-34.52	54.23	-33.24	57.11	-26.20	146.26	-30.25	18.99
	-6.54	-29.73	-35.34	52.58	-34.56	54.13	-30.25	18.84	-26.43	149.10
84.90000000000001	-27.44	87.59	-6.54	-30.77	-6.53	-30.71	-6.54	-30.80	-6.54	-30.61
	-6.56	-30.64	-25.93	138.42	-29.33	20.76	-34.34	53.37	-35.15	51.86
	-6.56	-30.50	-29.34	20.92	-26.40	147.56	-33.05	56.39	-34.39	53.58
	-6.54	-30.66	-34.34	53.54	-33.05	56.52	-26.22	145.66	-30.16	18.89
	-6.54	-30.44	-35.15	51.92	-34.38	53.54	-30.16	18.73	-26.45	148.48
86.89	-27.30	86.05	-6.54	-31.49	-6.54	-31.36	-6.55	-31.51	-6.55	-31.30
	-6.57	-31.33	-25.93	137.59	-29.23	20.70	-34.16	52.75	-34.98	51.26
	-6.56	-31.18	-29.24	20.80	-26.43	146.95	-32.87	55.75	-34.22	53.01
	-6.54	-31.33	-34.17	52.96	-32.89	55.98	-26.24	144.97	-30.07	18.81
	-6.55	-31.14	-34.97	51.25	-34.20	52.94	-30.07	18.67	-26.47	147.81
88.89	-27.16	84.60	-6.55	-32.18	-6.54	-32.09	-6.55	-32.21	-6.55	-32.00
	-6.57	-32.04	-25.93	136.72	-29.14	20.60	-33.98	52.15	-34.80	50.63
	-6.56	-31.89	-29.15	20.71	-26.46	146.29	-32.69	55.21	-34.04	52.27
	-6.55	-32.05	-34.00	52.33	-32.70	55.38	-26.25	144.17	-29.98	18.72
	-6.55	-31.86	-34.80	50.61	-34.04	52.32	-29.98	18.55	-26.51	147.18
90.89	-27.04	83.17	-6.55	-32.90	-6.55	-32.81	-6.56	-32.91	-6.55	-32.68
	-6.58	-32.74	-25.95	135.83	-29.04	20.51	-33.81	51.55	-34.64	49.93
	-6.57	-32.59	-29.05	20.63	-26.49	145.68	-32.52	54.66	-33.86	51.68
	-6.55	-32.79	-33.83	51.72	-32.53	54.76	-26.26	143.41	-29.90	18.61
	-6.55	-32.55	-34.64	49.94	-33.86	51.60	-29.89	18.51	-26.53	146.67
92.89	-26.91	81.81	-6.55	-33.59	-6.55	-33.51	-6.56	-33.64	-6.56	-33.41
	-6.58	-33.47	-25.95	135.01	-28.94	20.37	-33.65	50.82	-34.48	49.36
	-6.57	-33.29	-28.96	20.54	-26.53	145.09	-32.36	54.06	-33.71	51.11
	-6.55	-33.46	-33.67	51.11	-32.37	54.29	-26.29	142.80	-29.81	18.56
	-6.55	-33.24	-34.47	49.31	-33.69	51.03	-29.80	18.36	-26.57	146.00
94.88	-26.80	80.50	-6.55	-34.30	-6.55	-34.19	-6.56	-34.33	-6.56	-34.10
	-6.58	-34.15	-25.96	134.37	-28.85	20.25	-33.49	50.29	-34.32	48.74
	-6.57	-34.01	-28.86	20.35	-26.56	144.46	-32.20	53.41	-33.55	50.44
	-6.56	-34.20	-33.50	50.50	-32.22	53.67	-26.30	142.25	-29.72	18.41
	-6.56	-33.95	-34.31	48.64	-33.54	50.43	-29.73	18.29	-26.61	145.41
96.88	-26.68	79.22	-6.56	-35.00	-6.56	-34.91	-6.56	-35.05	-6.56	-34.79
	-6.59	-34.88	-25.96	133.56	-28.76	20.10	-33.34	49.63	-34.16	48.04
	-6.57	-34.72	-28.77	20.23	-26.58	143.91	-32.04	52.85	-33.40	49.83
	-6.56	-34.88	-33.33	49.90	-32.05	53.00	-26.32	141.60	-29.64	18.26
	-6.55	-34.65	-34.15	48.05	-33.39	49.68	-29.64	18.12	-26.61	144.97
98.88	-26.59	77.92	-6.56	-35.71	-6.56	-35.60	-6.56	-35.76	-6.57	-35.51
	-6.59	-35.57	-25.97	132.87	-28.67	19.94	-33.19	48.98	-34.00	47.45
	-6.58	-35.42	-28.68	20.08	-26.61	143.38	-31.88	52.29	-33.22	49.22
	-6.56	-35.58	-33.18	49.23	-31.89	52.42	-26.33	140.99	-29.56	18.12
	-6.56	-35.34	-34.01	47.37	-33.23	49.13	-29.55	17.92	-26.66	144.40
100.88	-26.49	76.72	-6.56	-36.42	-6.56	-36.33	-6.57	-36.45	-6.57	-36.21
	-6.59	-36.29	-26.00	132.03	-28.59	19.78	-33.03	48.35	-33.86	46.68
	-6.58	-36.11	-28.59	19.90	-26.65	142.86	-31.73	51.69	-33.09	48.63
	-6.57	-36.30	-33.03	48.58	-31.75	51.85	-26.35	140.46	-29.48	17.99
	-6.56	-36.05	-33.85	46.72	-33.08	48.56	-29.48	17.80	-26.69	143.87
102.87	-26.40	75.41	-6.57	-37.11	-6.56	-37.01	-6.58	-37.18	-6.57	-36.92
	-6.60	-36.99	-25.99	131.28	-28.50	19.58	-32.89	47.78	-33.71	46.16
	-6.59	-36.81	-28.51	19.73	-26.68	142.35	-31.58	51.15	-32.94	47.97
	-6.56	-37.00	-32.89	47.99	-31.59	51.26	-26.37	139.85	-29.39	17.83
	-6.56	-36.75	-33.70	46.07	-32.94	47.94	-29.40	17.66	-26.72	143.46
104.87	-26.33	74.22	-6.57	-37.84	-6.57	-37.73	-6.57	-37.86	-6.57	-37.62
	-6.60	-37.71	-26.02	130.55	-28.41	19.44	-32.74	47.22	-33.57	45.45
	-6.58	-37.52	-28.42	19.53	-26.72	141.70	-31.44	50.54	-32.79	47.33
	-6.57	-37.70	-32.74	47.37	-31.44	50.72	-26.38	139.27	-29.32	17.65
	-6.57	-37.45	-33.57	45.42	-32.78	47.30	-29.31	17.47	-26.76	142.94
106.87	-26.25	73.04	-6.57	-38.51	-6.57	-38.42	-6.58	-38.56	-6.58	-38.30
	-6.60	-38.38	-26.01	129.85	-28.33	19.22	-32.60	46.53	-33.42	44.80
	-6.59	-38.23	-28.34	19.36	-26.75	141.34	-31.30	49.93	-32.65	46.71
	-6.57	-38.41	-32.60	46.74	-31.30	50.10	-26.41	138.74	-29.24	17.48
	-6.57	-38.16	-33.42	44.82	-32.65	46.65	-29.24	17.32	-26.80	142.45
108.87	-26.18	71.81	-6.58	-39.24	-6.58	-39.14	-6.59	-39.28	-6.59	-39.01
	-6.60	-39.09	-26.04	129.29	-28.25	19.06	-32.46	45.84	-33.29	44.17
	-6.59	-38.94	-28.25	19.13	-26.79	140.72	-31.16	49.35	-32.51	46.11
	-6.58	-39.12	-32.47	46.09	-31.17	49.55	-26.42	138.25	-29.16	17.26
	-6.57	-38.84	-33.28	44.15	-32.51	46.05	-29.17	17.12	-26.84	142.01
110.86	-26.13	70.70	-6.58	-39.95	-6.58	-39.83	-6.59	-39.97	-6.58	-39.70
	-6.60	-39.81	-26.05	128.43	-28.16	18.84	-32.32	45.24	-33.16	43.54
